!Keysight Technologies,N5222B,MY58422327,A.13.60.06
!Date: Wednesday, February 23, 2022 12:59:56
!Correction: S11(Full 1 Port(1)) 
!S1P File: Measurement: S11:
# Hz S  dB   R 50
860000000 -4.6354971 -36.251762
860100000 -4.6467342 -36.451607
860200000 -4.6582408 -36.65377
860300000 -4.6698489 -36.856888
860400000 -4.6823621 -37.05357
860500000 -4.6939178 -37.260078
860600000 -4.7055883 -37.462708
860700000 -4.7169685 -37.667343
860800000 -4.7282672 -37.875999
860900000 -4.7395272 -38.080364
861000000 -4.7517791 -38.289906
861100000 -4.7626753 -38.504646
861200000 -4.7742505 -38.716087
861300000 -4.7860851 -38.932991
861400000 -4.7980881 -39.147945
861500000 -4.8107381 -39.363056
861600000 -4.8233538 -39.581467
861700000 -4.8361545 -39.794228
861800000 -4.849514 -40.017471
861900000 -4.8630714 -40.23288
862000000 -4.8760204 -40.449646
862100000 -4.8890047 -40.666206
862200000 -4.9029999 -40.886604
862300000 -4.9167356 -41.104828
862400000 -4.9299364 -41.328323
862500000 -4.9437261 -41.545975
862600000 -4.9582996 -41.7654
862700000 -4.9724746 -41.981026
862800000 -4.986289 -42.199646
862900000 -5.0014234 -42.420643
863000000 -5.0157337 -42.637135
863100000 -5.0310807 -42.855785
863200000 -5.0464263 -43.071327
863300000 -5.0611606 -43.296192
863400000 -5.0765243 -43.51786
863500000 -5.0917029 -43.736279
863600000 -5.106966 -43.957218
863700000 -5.12181 -44.174217
863800000 -5.1553459 -44.36652
863900000 -5.1699767 -44.584309
864000000 -5.184648 -44.808151
864100000 -5.2000303 -45.032318
864200000 -5.2145481 -45.249134
864300000 -5.2295532 -45.47673
864400000 -5.2444916 -45.693645
864500000 -5.2594404 -45.919651
864600000 -5.2752595 -46.141491
864700000 -5.2904711 -46.370533
864800000 -5.3060355 -46.593376
864900000 -5.3225126 -46.818928
865000000 -5.3392558 -47.046669
865100000 -5.3541675 -47.269222
865200000 -5.3710608 -47.49102
865300000 -5.3878365 -47.718472
865400000 -5.4038196 -47.942596
865500000 -5.4205794 -48.165825
865600000 -5.436718 -48.388744
865700000 -5.4542432 -48.615074
865800000 -5.471518 -48.84351
865900000 -5.4885774 -49.070343
866000000 -5.5057158 -49.290817
866100000 -5.5233865 -49.51775
866200000 -5.5403705 -49.736656
866300000 -5.5580759 -49.959934
866400000 -5.5752134 -50.181541
866500000 -5.5932398 -50.402981
866600000 -5.611165 -50.622581
866700000 -5.6295805 -50.841274
866800000 -5.6485481 -51.060635
866900000 -5.6663313 -51.272842
867000000 -5.6849437 -51.485645
867100000 -5.7037706 -51.698399
867200000 -5.7218642 -51.907425
867300000 -5.7392778 -52.116184
867400000 -5.7561212 -52.324726
867500000 -5.7718186 -52.536312
867600000 -5.7890344 -52.758427
867700000 -5.8061399 -52.970066
867800000 -5.8219566 -53.184052
867900000 -5.837563 -53.398838
868000000 -5.8540678 -53.618134
868100000 -5.8701377 -53.837967
868200000 -5.8862429 -54.054569
868300000 -5.9021783 -54.273762
868400000 -5.9186492 -54.500061
868500000 -5.9339128 -54.722214
868600000 -5.9492083 -54.949512
868700000 -5.9642868 -55.181866
868800000 -5.9793839 -55.408253
868900000 -5.9954996 -55.639973
869000000 -6.010663 -55.876137
869100000 -6.0259094 -56.118443
869200000 -6.0420442 -56.350483
869300000 -6.0577588 -56.592491
869400000 -6.0737624 -56.833759
869500000 -6.0896034 -57.079601
869600000 -6.1057415 -57.330807
869700000 -6.1213098 -57.584076
869800000 -6.1382189 -57.840912
869900000 -6.155519 -58.096157
870000000 -6.172152 -58.346687
870100000 -6.1889777 -58.603611
870200000 -6.2061687 -58.868801
870300000 -6.2241273 -59.127922
870400000 -6.2423024 -59.383503
870500000 -6.2616529 -59.647415
870600000 -6.2806959 -59.904953
870700000 -6.3001394 -60.161087
870800000 -6.3192763 -60.422859
870900000 -6.3375063 -60.680302
871000000 -6.356585 -60.944099
871100000 -6.3764939 -61.200188
871200000 -6.3957582 -61.466145
871300000 -6.4154115 -61.727543
871400000 -6.4345832 -61.980232
871500000 -6.4542327 -62.238754
871600000 -6.4736323 -62.500031
871700000 -6.4935622 -62.753765
871800000 -6.5120764 -63.015907
871900000 -6.5314693 -63.276531
872000000 -6.5509057 -63.540382
872100000 -6.569315 -63.804371
872200000 -6.5891199 -64.063515
872300000 -6.607317 -64.336037
872400000 -6.62644 -64.604988
872500000 -6.6449213 -64.871758
872600000 -6.6648655 -65.13916
872700000 -6.6840286 -65.414009
872800000 -6.7041264 -65.688919
872900000 -6.7234607 -65.967819
873000000 -6.7438126 -66.249001
873100000 -6.7646494 -66.528839
873200000 -6.7854729 -66.808876
873300000 -6.8065529 -67.091904
873400000 -6.8277497 -67.373543
873500000 -6.8500705 -67.65976
873600000 -6.8733554 -67.945282
873700000 -6.8969259 -68.234314
873800000 -6.920639 -68.518883
873900000 -6.9448142 -68.808174
874000000 -6.9707799 -69.100967
874100000 -6.9970651 -69.397484
874200000 -7.0243163 -69.68557
874300000 -7.0510592 -69.96801
874400000 -7.0785189 -70.256042
874500000 -7.1062131 -70.534332
874600000 -7.1342044 -70.817177
874700000 -7.1621833 -71.097992
874800000 -7.1910167 -71.377281
874900000 -7.2216535 -71.655426
875000000 -7.2504382 -71.926598
875100000 -7.2807798 -72.208488
875200000 -7.3111024 -72.480255
875300000 -7.3414712 -72.754189
875400000 -7.3719668 -73.026077
875500000 -7.403048 -73.300812
875600000 -7.4336324 -73.574379
875700000 -7.4638343 -73.850899
875800000 -7.4963341 -74.110718
875900000 -7.5265779 -74.372406
876000000 -7.5581193 -74.643761
876100000 -7.5888519 -74.913544
876200000 -7.619462 -75.178276
876300000 -7.6503677 -75.440704
876400000 -7.6809254 -75.705147
876500000 -7.711719 -75.972672
876600000 -7.7421975 -76.247055
876700000 -7.7725658 -76.513313
876800000 -7.8022776 -76.792755
876900000 -7.8324795 -77.059608
877000000 -7.8633332 -77.332909
877100000 -7.895431 -77.613098
877200000 -7.926034 -77.887932
877300000 -7.9579849 -78.166199
877400000 -7.9897118 -78.443977
877500000 -8.0227242 -78.714188
877600000 -8.0561218 -78.997566
877700000 -8.0880785 -79.279945
877800000 -8.1206398 -79.565056
877900000 -8.1542645 -79.846031
878000000 -8.1866798 -80.126656
878100000 -8.2206488 -80.414696
878200000 -8.2555828 -80.69532
878300000 -8.2903471 -80.983154
878400000 -8.3261328 -81.267296
878500000 -8.3616581 -81.538712
878600000 -8.3978319 -81.819992
878700000 -8.4350672 -82.100243
878800000 -8.4715357 -82.382393
878900000 -8.5072765 -82.664124
879000000 -8.5433092 -82.944504
879100000 -8.5801659 -83.222977
879200000 -8.6179123 -83.495056
879300000 -8.6552029 -83.764793
879400000 -8.6932497 -84.034348
879500000 -8.7295103 -84.302231
879600000 -8.7672205 -84.564903
879700000 -8.8055611 -84.827744
879800000 -8.8445482 -85.096336
879900000 -8.8845711 -85.352516
880000000 -8.9228849 -85.611839
880100000 -8.960021 -85.862679
880200000 -8.9985323 -86.107605
880300000 -9.0353928 -86.35218
880400000 -9.0734253 -86.607803
880500000 -9.1095591 -86.862343
880600000 -9.1461382 -87.121361
880700000 -9.1825886 -87.376358
880800000 -9.2205095 -87.629044
880900000 -9.2581158 -87.890511
881000000 -9.2955666 -88.163986
881100000 -9.3325233 -88.428879
881200000 -9.369072 -88.690224
881300000 -9.4066572 -88.950241
881400000 -9.4436655 -89.217178
881500000 -9.4812298 -89.481094
881600000 -9.5177956 -89.754799
881700000 -9.5535879 -90.024391
881800000 -9.5908871 -90.289436
881900000 -9.627244 -90.566071
882000000 -9.6636305 -90.847023
882100000 -9.7007265 -91.150597
882200000 -9.7423687 -91.438766
882300000 -9.7785873 -91.69529
882400000 -9.8152571 -91.971298
882500000 -9.8507786 -92.255447
882600000 -9.8888206 -92.545662
882700000 -9.9253883 -92.836189
882800000 -9.9622355 -93.131386
882900000 -9.9988985 -93.426018
883000000 -10.036139 -93.723869
883100000 -10.075166 -94.013008
883200000 -10.11524 -94.320854
883300000 -10.154976 -94.626579
883400000 -10.193589 -94.940071
883500000 -10.232438 -95.256241
883600000 -10.272265 -95.575951
883700000 -10.315014 -95.902069
883800000 -10.356711 -96.222382
883900000 -10.39947 -96.548203
884000000 -10.444592 -96.862328
884100000 -10.491729 -97.178436
884200000 -10.536788 -97.481461
884300000 -10.581678 -97.782097
884400000 -10.626346 -98.094551
884500000 -10.671092 -98.413391
884600000 -10.718933 -98.72821
884700000 -10.767799 -99.051758
884800000 -10.81739 -99.354286
884900000 -10.867183 -99.661919
885000000 -10.916912 -99.962143
885100000 -10.969835 -100.2649
885200000 -11.023551 -100.57207
885300000 -11.077991 -100.87109
885400000 -11.132552 -101.16737
885500000 -11.18687 -101.46613
885600000 -11.243226 -101.75485
885700000 -11.302123 -102.0484
885800000 -11.359095 -102.32792
885900000 -11.416548 -102.59987
886000000 -11.473839 -102.88023
886100000 -11.531617 -103.15456
886200000 -11.591511 -103.42679
886300000 -11.65262 -103.70502
886400000 -11.714481 -103.96669
886500000 -11.775588 -104.22213
886600000 -11.837731 -104.47814
886700000 -11.901659 -104.72112
886800000 -11.966632 -104.96613
886900000 -12.030615 -105.18609
887000000 -12.093814 -105.40248
887100000 -12.156335 -105.6236
887200000 -12.220033 -105.82108
887300000 -12.286648 -106.02229
887400000 -12.351978 -106.20294
887500000 -12.415958 -106.37617
887600000 -12.479057 -106.55401
887700000 -12.54092 -106.7227
887800000 -12.604404 -106.86704
887900000 -12.667994 -107.00937
888000000 -12.73001 -107.14796
888100000 -12.788859 -107.28073
888200000 -12.847515 -107.41988
888300000 -12.907012 -107.53873
888400000 -12.966314 -107.64712
888500000 -13.023995 -107.7553
888600000 -13.079876 -107.86388
888700000 -13.135279 -107.98106
888800000 -13.188222 -108.07933
888900000 -13.242031 -108.17939
889000000 -13.293047 -108.27209
889100000 -13.341767 -108.37381
889200000 -13.388928 -108.48077
889300000 -13.435948 -108.59205
889400000 -13.481756 -108.68267
889500000 -13.526686 -108.77064
889600000 -13.570165 -108.884
889700000 -13.611479 -108.99764
889800000 -13.65302 -109.12733
889900000 -13.69252 -109.24672
890000000 -13.730627 -109.34999
890100000 -13.767681 -109.49209
890200000 -13.805409 -109.64514
890300000 -13.844037 -109.79489
890400000 -13.881398 -109.94881
890500000 -13.915364 -110.09595
890600000 -13.949275 -110.24123
890700000 -13.982555 -110.4162
890800000 -14.015463 -110.6
890900000 -14.050667 -110.80601
891000000 -14.081783 -111.00994
891100000 -14.114209 -111.20021
891200000 -14.146826 -111.42347
891300000 -14.17929 -111.64887
891400000 -14.214734 -111.90139
891500000 -14.249216 -112.14611
891600000 -14.28366 -112.38962
891700000 -14.31856 -112.64556
891800000 -14.356131 -112.90852
891900000 -14.394506 -113.19373
892000000 -14.433752 -113.46346
892100000 -14.47298 -113.73988
892200000 -14.512117 -114.02555
892300000 -14.553061 -114.31573
892400000 -14.595598 -114.61245
892500000 -14.641174 -114.90873
892600000 -14.687062 -115.1864
892700000 -14.731095 -115.46764
892800000 -14.777776 -115.76206
892900000 -14.825364 -116.05402
893000000 -14.876723 -116.34797
893100000 -14.926461 -116.62331
893200000 -14.975388 -116.89898
893300000 -15.02412 -117.18327
893400000 -15.076756 -117.46207
893500000 -15.129131 -117.74645
893600000 -15.185357 -118.00881
893700000 -15.239822 -118.25836
893800000 -15.292362 -118.51457
893900000 -15.348151 -118.75005
894000000 -15.403844 -118.98369
894100000 -15.459333 -119.19408
894200000 -15.513106 -119.40873
894300000 -15.562635 -119.61823
894400000 -15.613767 -119.81567
894500000 -15.665378 -120.02215
894600000 -15.717062 -120.20628
894700000 -15.764235 -120.37024
894800000 -15.810152 -120.54814
894900000 -15.854178 -120.73148
895000000 -15.897268 -120.91084
895100000 -15.940087 -121.07861
895200000 -15.979692 -121.23743
895300000 -16.018303 -121.41104
895400000 -16.052408 -121.59978
895500000 -16.084415 -121.7696
895600000 -16.117661 -121.97023
895700000 -16.145515 -122.1559
895800000 -16.173298 -122.36317
895900000 -16.198458 -122.60358
896000000 -16.224253 -122.84277
896100000 -16.248995 -123.09515
896200000 -16.275309 -123.34203
896300000 -16.297871 -123.60462
896400000 -16.320608 -123.89082
896500000 -16.344439 -124.19064
896600000 -16.368473 -124.49419
896700000 -16.391186 -124.81046
896800000 -16.413109 -125.12326
896900000 -16.436026 -125.46062
897000000 -16.458174 -125.83264
897100000 -16.481209 -126.18214
897200000 -16.504025 -126.55
897300000 -16.524443 -126.93108
897400000 -16.547699 -127.31741
897500000 -16.571699 -127.73525
897600000 -16.596489 -128.14687
897700000 -16.621157 -128.56406
897800000 -16.646105 -128.99229
897900000 -16.66877 -129.42995
898000000 -16.694763 -129.89978
898100000 -16.722517 -130.38452
898200000 -16.750803 -130.85263
898300000 -16.77895 -131.34438
898400000 -16.80657 -131.83215
898500000 -16.837645 -132.33163
898600000 -16.871391 -132.8662
898700000 -16.904821 -133.37749
898800000 -16.939388 -133.89934
898900000 -16.973274 -134.43921
899000000 -17.009706 -134.98479
899100000 -17.046646 -135.54004
899200000 -17.086681 -136.08789
899300000 -17.125278 -136.64221
899400000 -17.164175 -137.21904
899500000 -17.202303 -137.78568
899600000 -17.244272 -138.35484
899700000 -17.289963 -138.93329
899800000 -17.33342 -139.49706
899900000 -17.37887 -140.09709
900000000 -17.424751 -140.6835
900100000 -17.470102 -141.24326
900200000 -17.521933 -141.82104
900300000 -17.568256 -142.39236
900400000 -17.617704 -142.96718
900500000 -17.665237 -143.55762
900600000 -17.711004 -144.12276
900700000 -17.763466 -144.70584
900800000 -17.811502 -145.28909
900900000 -17.861891 -145.86217
901000000 -17.914701 -146.46533
901100000 -17.961184 -147.06575
901200000 -18.008917 -147.64172
901300000 -18.060247 -148.24416
901400000 -18.107632 -148.85736
901500000 -18.158024 -149.47668
901600000 -18.20509 -150.118
901700000 -18.250328 -150.74023
901800000 -18.302671 -151.34845
901900000 -18.352795 -151.97783
902000000 -18.402285 -152.6088
902100000 -18.453384 -153.26669
902200000 -18.501171 -153.9071
902300000 -18.551229 -154.54572
902400000 -18.6022 -155.18379
902500000 -18.650455 -155.84946
902600000 -18.703892 -156.5036
902700000 -18.753019 -157.15781
902800000 -18.803068 -157.81099
902900000 -18.856312 -158.44106
903000000 -18.907015 -159.10292
903100000 -18.960596 -159.7556
903200000 -19.012043 -160.42815
903300000 -19.060343 -161.06978
903400000 -19.108221 -161.70044
903500000 -19.15596 -162.34782
903600000 -19.19906 -162.99402
903700000 -19.246338 -163.67152
903800000 -19.291403 -164.32137
903900000 -19.333649 -164.94182
904000000 -19.373848 -165.58156
904100000 -19.407513 -166.22513
904200000 -19.443485 -166.86951
904300000 -19.47323 -167.54089
904400000 -19.498568 -168.21881
904500000 -19.523293 -168.90237
904600000 -19.543455 -169.64433
904700000 -19.569204 -170.40805
904800000 -19.59798 -171.18362
904900000 -19.624363 -171.94238
905000000 -19.651203 -172.68352
905100000 -19.676121 -173.42342
905200000 -19.698099 -174.17621
905300000 -19.718388 -174.96352
905400000 -19.733793 -175.75963
905500000 -19.745556 -176.58388
905600000 -19.760265 -177.39032
905700000 -19.77281 -178.23921
905800000 -19.785645 -179.12852
905900000 -19.801054 179.98761
906000000 -19.808695 179.07207
906100000 -19.821808 178.17496
906200000 -19.831553 177.24905
906300000 -19.844316 176.28647
906400000 -19.858828 175.32739
906500000 -19.869764 174.35933
906600000 -19.881256 173.39679
906700000 -19.892828 172.43272
906800000 -19.902199 171.42438
906900000 -19.914608 170.42812
907000000 -19.924829 169.42433
907100000 -19.932703 168.40144
907200000 -19.941418 167.40718
907300000 -19.947878 166.37915
907400000 -19.959221 165.33681
907500000 -19.966431 164.31081
907600000 -19.970398 163.26329
907700000 -19.977531 162.23613
907800000 -19.9797 161.19185
907900000 -19.98469 160.10504
908000000 -19.990707 159.02422
908100000 -19.992001 157.94199
908200000 -19.995733 156.8513
908300000 -19.997259 155.77614
908400000 -19.998661 154.67574
908500000 -20.003834 153.56458
908600000 -20.004316 152.46614
908700000 -20.004257 151.34883
908800000 -20.006901 150.25697
908900000 -20.002962 149.12794
909000000 -20.007404 148.01009
909100000 -20.005615 146.88068
909200000 -20.004921 145.74364
909300000 -20.004147 144.62868
909400000 -19.998053 143.48622
909500000 -19.998558 142.33264
909600000 -19.999018 141.20154
909700000 -19.99498 140.05824
909800000 -19.995178 138.92551
909900000 -19.988699 137.77505
910000000 -19.987236 136.60759
910100000 -19.986614 135.45953
910200000 -19.985611 134.29135
910300000 -19.984308 133.1274
910400000 -19.980904 131.97586
910500000 -19.979328 130.83783
910600000 -19.984129 129.68259
910700000 -19.986273 128.54712
910800000 -19.986353 127.39037
910900000 -19.989014 126.27083
911000000 -19.991758 125.14042
911100000 -19.996384 124.00512
911200000 -20.000233 122.89252
911300000 -20.003075 121.76559
911400000 -20.009985 120.65542
911500000 -20.012524 119.57509
911600000 -20.019812 118.47195
911700000 -20.026724 117.4015
911800000 -20.030415 116.33359
911900000 -20.041759 115.26965
912000000 -20.050016 114.23649
912100000 -20.056452 113.19176
912200000 -20.064318 112.1806
912300000 -20.073978 111.16405
912400000 -20.082466 110.17543
912500000 -20.093163 109.20383
912600000 -20.097342 108.23447
912700000 -20.108194 107.2683
912800000 -20.116074 106.32886
912900000 -20.126274 105.39606
913000000 -20.138218 104.48345
913100000 -20.148815 103.59737
913200000 -20.163124 102.71275
913300000 -20.171143 101.89276
913400000 -20.175238 101.05925
913500000 -20.18507 100.23579
913600000 -20.189816 99.426094
913700000 -20.192858 98.618263
913800000 -20.197073 97.835159
913900000 -20.20052 97.061584
914000000 -20.204504 96.324402
914100000 -20.20677 95.611107
914200000 -20.202728 94.886787
914300000 -20.199774 94.212517
914400000 -20.193386 93.528259
914500000 -20.18395 92.874359
914600000 -20.171194 92.251785
914700000 -20.152172 91.596046
914800000 -20.131441 90.918076
914900000 -20.109596 90.232094
915000000 -20.088831 89.547264
915100000 -20.067471 88.870377
915200000 -20.04307 88.185875
915300000 -20.020899 87.492851
915400000 -19.995234 86.789558
915500000 -19.971212 86.094963
915600000 -19.946077 85.416382
915700000 -19.920361 84.728706
915800000 -19.892042 84.013123
915900000 -19.867722 83.298393
916000000 -19.841799 82.579178
916100000 -19.817101 81.885658
916200000 -19.789446 81.164375
916300000 -19.765097 80.463379
916400000 -19.740086 79.733131
916500000 -19.71768 78.996422
916600000 -19.696354 78.294128
916700000 -19.67428 77.595383
916800000 -19.655872 76.890968
916900000 -19.638632 76.168465
917000000 -19.624588 75.432831
917100000 -19.607485 74.751961
917200000 -19.59178 74.073891
917300000 -19.576164 73.387756
917400000 -19.562172 72.68354
917500000 -19.552095 71.98793
917600000 -19.544397 71.308319
917700000 -19.53417 70.658669
917800000 -19.525286 70.009483
917900000 -19.517965 69.343979
918000000 -19.510761 68.704521
918100000 -19.508673 68.06179
918200000 -19.503952 67.422997
918300000 -19.498732 66.852646
918400000 -19.493832 66.257698
918500000 -19.490959 65.660072
918600000 -19.490616 65.093788
918700000 -19.489788 64.550797
918800000 -19.487808 64.030815
918900000 -19.486814 63.514294
919000000 -19.482986 63.002972
919100000 -19.479563 62.507904
919200000 -19.478201 62.020405
919300000 -19.471867 61.557034
919400000 -19.464373 61.108788
919500000 -19.454433 60.642593
919600000 -19.443434 60.176643
919700000 -19.436922 59.733181
919800000 -19.422937 59.286419
919900000 -19.408461 58.862659
920000000 -19.393015 58.417973
920100000 -19.380283 57.956867
920200000 -19.370354 57.509136
920300000 -19.354937 57.088284
920400000 -19.340712 56.66824
920500000 -19.325666 56.255077
920600000 -19.311529 55.804874
920700000 -19.297401 55.398853
920800000 -19.284777 54.981064
920900000 -19.268145 54.565342
921000000 -19.253954 54.168682
921100000 -19.237772 53.743122
921200000 -19.223717 53.324184
921300000 -19.21084 52.926189
921400000 -19.194481 52.51104
921500000 -19.179852 52.115017
921600000 -19.164263 51.696228
921700000 -19.151476 51.267048
921800000 -19.136322 50.867935
921900000 -19.121876 50.451538
922000000 -19.105209 50.048431
922100000 -19.089094 49.65984
922200000 -19.079756 49.233906
922300000 -19.058821 48.852287
922400000 -19.04339 48.464733
922500000 -19.025555 48.054363
922600000 -19.007288 47.672848
922700000 -18.993418 47.252357
